;Version, 1, 0
;/M0/S (vsg=0),;/M0/S (vsg=0.5),;/M0/S (vsg=1),;/M0/S (vsg=1.5),;/M0/S (vsg=2),;/M0/S (vsg=2.5),;/M0/S (vsg=3),;/M0/S (vsg=3.5),;/M0/S (vsg=4),;/M0/S (vsg=4.5),;/M0/S (vsg=5)
;X, Y,;X, Y,;X, Y,;X, Y,;X, Y,;X, Y,;X, Y,;X, Y,;X, Y,;X, Y,;X, Y
;Re, Re,;Re, Re,;Re, Re,;Re, Re,;Re, Re,;Re, Re,;Re, Re,;Re, Re,;Re, Re,;Re, Re,;Re, Re
;dc, I,;dc, I,;dc, I,;dc, I,;dc, I,;dc, I,;dc, I,;dc, I,;dc, I,;dc, I,;dc, I
;V, A,;V, A,;V, A,;V, A,;V, A,;V, A,;V, A,;V, A,;V, A,;V, A,;V, A
0,0,0,0,0,0,0,0,0,0,0,0,0,0,0,0,0,0,0,0,0,0
0.1,1.102433365882312e-13,0.1,2.272798709515428e-11,0.1,5.672156237273224e-07,0.1,5.309016224524415e-06,0.1,9.124869625784555e-06,0.1,1.216003854084629e-05,0.1,1.462564080020686e-05,0.1,1.666468357985112e-05,0.1,1.837664714974109e-05,0.1,1.983252244985111e-05,0.1,2.108424104630094e-05
0.2,2.102808790515106e-13,0.2,2.629603447797107e-11,0.2,6.779406069233985e-07,0.2,9.524712472031416e-06,0.2,1.724662105103281e-05,0.2,2.341379301942915e-05,0.2,2.843082948049105e-05,0.2,3.258304077102144e-05,0.2,3.607090111401039e-05,0.2,3.903806446022191e-05,0.2,4.158984412517944e-05
0.3,3.103198520011765e-13,0.3,2.998975697385062e-11,0.3,7.432856212847713e-07,0.3,1.265583141241162e-05,0.3,2.436677639702573e-05,0.3,3.376184229442022e-05,0.3,4.141572784972673e-05,0.3,4.775499962081045e-05,0.3,5.308255006666515e-05,0.3,5.76163293393059e-05,0.3,6.151646201063545e-05
0.4,4.103632976688432e-13,0.4,3.409036472450894e-11,0.4,8.087598629854589e-07,0.4,1.47360554404905e-05,0.4,3.048742669123548e-05,0.4,4.32048320526165e-05,0.4,5.35805088742522e-05,0.4,6.218048853933873e-05,0.4,6.941137998786854e-05,0.4,7.556701766662457e-05,0.4,8.086374478175569e-05
0.5,5.104120710139102e-13,0.5,3.867529061788899e-11,0.5,8.770117767238733e-07,0.5,1.592438604295753e-05,0.5,3.561214779490283e-05,0.5,5.174354045886917e-05,0.5,6.492536758940003e-05,0.5,7.585943901717295e-05,0.5,8.505717552045407e-05,0.5,9.288982760792473e-05,0.5,9.963133995238338e-05
0.6,6.10466913267225e-13,0.6,4.381096682996909e-11,0.6,9.48508088152054e-07,0.6,1.663632836107507e-05,0.6,3.974893195500626e-05,0.6,5.937901515755184e-05,0.6,7.545053966787401e-05,0.6,8.879178972220916e-05,0.6,0.0001000197211542166,0.6,0.0001095844553187539,0.6,0.0001178188926231902
0.7,7.105286122670012e-13,0.7,4.956765040824836e-11,0.7,1.023420057745922e-06,0.7,1.721106667239403e-05,0.7,4.292101274353419e-05,0.7,6.611288340091514e-05,0.7,8.515633448923549e-05,0.7,0.0001009774928744499,0.7,0.0001142988029147111,0.7,0.0001256505954857227,0.7,0.0001354260456766324
0.7999999999999999,8.105980389386902e-13,0.7999999999999999,5.602271697504599e-11,0.7999999999999999,1.101844855893743e-06,0.7999999999999999,1.774542492616278e-05,0.7999999999999999,4.520729137551235e-05,0.7999999999999999,7.194812422804542e-05,0.7999999999999999,9.404319713748054e-05,0.7999999999999999,0.0001124165244808653,0.7999999999999999,0.0001278942108221393,0.7999999999999999,0.0001410879420629225,0.7999999999999999,0.0001524524400293176
0.8999999999999999,9.106761657074184e-13,0.8999999999999999,6.326225661128383e-11,0.8999999999999999,1.183851216882624e-06,0.8999999999999999,1.825996651975622e-05,0.8999999999999999,4.682921452638845e-05,0.8999999999999999,7.689120796696166e-05,0.8999999999999999,0.0001021118317529665,0.8999999999999999,0.0001231089013594136,0.8999999999999999,0.0001408057425549761,0.8999999999999999,0.0001558961892897486,0.8999999999999999,0.0001688977149621824
0.9999999999999999,1.01076408179055e-12,0.9999999999999999,7.138235839668889e-11,0.9999999999999999,1.26949254989965e-06,0.9999999999999999,1.876085880587962e-05,0.9999999999999999,4.810497622343201e-05,0.9999999999999999,8.095864613899667e-05,0.9999999999999999,0.0001093634644558391,0.9999999999999999,0.0001330547106179717,0.9999999999999999,0.0001530332090506543,0.9999999999999999,0.0001700750331222329,0.9999999999999999,0.0001847615085575434
1.1,1.110863008691207e-12,1.1,8.049038853175942e-11,1.1,1.358811699501823e-06,1.1,1.925093177884946e-05,1.1,4.923074326771742e-05,1.1,8.41973808364289e-05,1.1,0.0001158004496106753,1.1,0.0001422541631022461,1.1,0.0001645764433176252,1.1,0.0001836241732847892,1.1,0.0002000434582851032
1.2,1.210974316954776e-12,1.2,9.070635632328147e-11,1.2,1.451843051373456e-06,1.2,1.973193798926766e-05,1.2,5.027570033617516e-05,1.2,8.673170071834657e-05,1.2,0.0001214277920023776,1.2,0.0001507076955429355,1.2,0.0001754353147575434,1.2,0.0001965433162744921,1.2,0.0002147432017988961
1.3,1.311099544691675e-12,1.3,1.021644096208771e-10,1.3,1.548613656307976e-06,1.3,2.020516037086884e-05,1.3,5.126412808281571e-05,1.3,8.878271283821611e-05,1.3,0.000126257272433609,1.3,0.0001584161778634826,1.3,0.000185609753314318,1.3,0.0002088321798656884,1.3,0.0002288603780382394
1.4,1.411240418216468e-12,1.4,1.150144861555729e-10,1.4,1.649143948606707e-06,1.4,2.067162166186961e-05,1.4,5.220752514379461e-05,1.4,9.05581472633003e-05,1.4,0.0001303188179244428,1.4,0.0001653813631714813,1.4,0.0001950997919277806,1.4,0.0002204905000460864,1.4,0.000242394628775342
1.5,1.511398875118541e-12,1.5,1.29424142967417e-10,1.5,1.75344828248265e-06,1.5,2.11321738705967e-05,1.5,5.311304159344115e-05,1.5,9.216895206557398e-05,1.5,0.0001336864149954399,1.5,0.0001716069364665573,1.5,0.0002039056447885622,1.5,0.0002315180420208511,1.5,0.0002553456008333091
1.6,1.611577090086443e-12,1.6,1.455805855506714e-10,1.6,1.86153538133353e-06,1.6,2.158754426248219e-05,1.6,5.398588601496053e-05,1.6,9.366376942401925e-05,1.6,0.000136503040932851,1.6,0.0001771011167384676,1.6,0.000212027859506584,1.6,0.0002419146182697317,1.6,0.0002677129493344485
1.7,1.711777503832967e-12,1.7,1.636929192696453e-10,1.7,1.973408742737782e-06,1.7,2.203836283413577e-05,1.7,5.483016940826964e-05,1.7,9.506722109480927e-05,1.7,0.0001389411421459367,1.7,0.0001818832282790055,1.7,0.0002194676310063067,1.7,0.000251680119330561,1.7,0.0002794963425742431
1.8,1.812002855503067e-12,1.8,1.839946472377558e-10,1.8,2.089067019208574e-06,1.8,2.248518068902841e-05,1.8,5.564927308969339e-05,1.8,9.639473728638515e-05,1.8,0.0001411265922009328,1.8,0.0001859983378764657,1.8,0.0002262274902162158,1.8,0.000260814568591186,1.8,0.0002906954695369831
1.900000000000001,1.912256218989009e-12,1.900000000000001,2.067464409199123e-10,1.900000000000001,2.208504384046385e-06,1.900000000000001,2.292848334177979e-05,1.900000000000001,5.644604323017145e-05,1.900000000000001,9.765746707733688e-05,1.900000000000001,0.0001431288938654865,1.900000000000001,0.0001895363663272924,1.900000000000001,0.0002323128998555517,1.900000000000001,0.0002693182246497556,1.900000000000001,0.0003013100518477597
2,2.012541043626295e-12,2,2.322392121033274e-10,2,2.331710886362676e-06,2,2.336870088135256e-05,2,5.722291038150093e-05,2,9.886410323189849e-05,2,0.0001449870638657328,2,0.0001926245825183315,2,0.0002377360299661235,2,0.0002771917829964102,2,0.0003113398634549782
2.100000000000001,2.112861199799367e-12,2.100000000000001,2.607975175435308e-10,2.100000000000001,2.458672796671178e-06,2.100000000000001,2.380621601956804e-05,2.100000000000001,5.79819710537858e-05,2.100000000000001,0.0001000217022496634,2.100000000000001,0.0001467263068794353,2.100000000000001,0.0001953810356452819,2.100000000000001,0.0002425240025452819,2.100000000000001,0.0002844367961584111,2.100000000000001,0.0003207847643512196
2.200000000000001,2.213221030048894e-12,2.200000000000001,2.927833305209779e-10,2.200000000000001,2.589372943078044e-06,2.200000000000001,2.424137062369313e-05,2.200000000000001,5.872504738701387e-05,2.200000000000001,0.0001011361267670642,2.200000000000001,0.0001483648978922755,2.200000000000001,0.0001978866679469182,2.200000000000001,0.000246731651067446,2.200000000000001,0.0002910565947145261,2.200000000000001,0.0003296447609806818
2.300000000000001,2.313625406342828e-12,2.300000000000001,3.286002167431008e-10,2.300000000000001,2.723791037431646e-06,2.300000000000001,2.46744711113061e-05,2.300000000000001,5.945373280702554e-05,2.300000000000001,0.0001022123206165992,2.300000000000001,0.0001499170123214119,2.300000000000001,0.0002001930070520549,2.300000000000001,0.0002504457972515553,2.300000000000001,0.0002970583620164609,2.300000000000001,0.0003379201199580695
2.400000000000001,2.414079794252323e-12,2.400000000000001,3.686979555091409e-10,2.400000000000001,2.861903990505721e-06,2.400000000000001,2.510579296250569e-05,2.400000000000001,6.016942801260707e-05,2.400000000000001,0.0001032544973159259,2.400000000000001,0.0001513940666409626,2.400000000000001,0.0002023351003092625,2.400000000000001,0.0002537641261863706,2.400000000000001,0.0003024576153877005,2.400000000000001,0.0003456115938685602
2.500000000000001,2.514590324862071e-12,2.500000000000001,4.135776508370388e-10,2.500000000000001,3.003686215218525e-06,2.500000000000001,2.553558453063916e-05,2.500000000000001,6.087336992797489e-05,2.500000000000001,0.0001042662776359021,2.500000000000001,0.0001528054638277961,2.500000000000001,0.0002043387778538411,2.500000000000001,0.0002567685164364321,2.500000000000001,0.0003072860304294152,2.500000000000001,0.0003527208937498709
2.600000000000001,2.615163875343793e-12,2.600000000000001,4.637973813527681e-10,2.600000000000001,3.14910991694311e-06,2.600000000000001,2.596407028550088e-05,2.600000000000001,6.156665534297336e-05,2.600000000000001,0.0001052507941765318,2.600000000000001,0.0001541590644393594,2.600000000000001,0.0002062241282298786,2.600000000000001,0.0002595188933159897,2.600000000000001,0.0003115984263231056,2.600000000000001,0.0003592517174427402
2.700000000000001,2.715808159232138e-12,2.700000000000001,5.199784421854526e-10,2.700000000000001,3.298145370084645e-06,2.700000000000001,2.639145359111332e-05,2.700000000000001,6.225026043412938e-05,2.700000000000001,0.0001062107730523391,2.700000000000001,0.0001554615115500092,2.700000000000001,0.0002080072878711959,2.700000000000001,0.0002620589815946966,2.700000000000001,0.0003154676759725967,2.700000000000001,0.0003652119816302221
2.800000000000001,2.816531827566917e-12,2.800000000000001,5.828122369216334e-10,2.800000000000001,3.450761180257245e-06,2.800000000000001,2.681791909776461e-05,2.800000000000001,6.292505702949002e-05,2.800000000000001,0.0001071485989256209,2.800000000000001,0.0001567184679389718,2.800000000000001,0.0002097014855003026,2.800000000000001,0.0002644219625097548,2.800000000000001,0.0003189677547356626,2.800000000000001,0.000370618176269468
2.900000000000001,2.917344582203806e-12,2.900000000000001,6.530678828771774e-10,2.900000000000001,3.606924531564291e-06,2.900000000000001,2.724363481159947e-05,2.900000000000001,6.35918262615684e-05,2.900000000000001,0.0001080663675196967,2.900000000000001,0.0001579347957182979,2.900000000000001,0.0002113177203121415,2.900000000000001,0.0002666339149332215,2.900000000000001,0.0003221616480677376,2.900000000000001,0.0003755014386371947
3.000000000000001,3.018257302751747e-12,3.000000000000001,7.316005985764731e-10,3.000000000000001,3.766601418659503e-06,3.000000000000001,2.766875389275852e-05,3.000000000000001,6.425127010110562e-05,3.000000000000001,0.0001089659284941304,3.000000000000001,0.0001591146958051179,3.000000000000001,0.0002128652361955899,3.000000000000001,0.0002687158392024658,3.000000000000001,0.0003250995608488595,3.000000000000001,0.0003799104007255184
3.100000000000001,3.119282188768701e-12,3.100000000000001,8.19360948420563e-10,3.100000000000001,3.929756863433151e-06,3.100000000000001,2.809341622361708e-05,3.100000000000001,6.490402115533413e-05,3.100000000000001,0.0001098489207691947,3.100000000000001,0.000160261818169667,3.100000000000001,0.0002143518697501374,3.100000000000001,0.0002706849335224662,3.100000000000001,0.0003278212631958618,3.100000000000001,0.0003839050153418595
3.200000000000002,3.22043291904215e-12,3.200000000000002,9.174050261165286e-10,3.200000000000002,4.096355116322942e-06,3.200000000000002,2.851774978128974e-05,3.200000000000002,6.55506510338103e-05,3.200000000000002,0.0001107168018538644,3.200000000000002,0.0001613793501759719,3.200000000000002,0.0002157843139721381,3.200000000000002,0.0002725554602373598,3.200000000000002,0.0003303586142675107,3.200000000000002,0.000387545605311428
3.300000000000002,3.32172482999868e-12,3.300000000000002,1.026905665572775e-09,3.300000000000002,4.266359842389864e-06,3.300000000000002,2.894187184271404e-05,3.300000000000002,6.619167752396566e-05,3.300000000000002,0.0001115708723592141,3.300000000000002,0.0001624700881436956,3.300000000000002,0.0002171683225228257,3.300000000000002,0.0002743393662628438,3.300000000000002,0.0003327374693556112,3.300000000000002,0.0003908857757550632
3.400000000000002,3.423175115530231e-12,3.400000000000002,1.149164775685856e-09,3.400000000000002,4.43973429242333e-06,3.400000000000002,2.936589004592767e-05,3.400000000000002,6.682757077169684e-05,3.400000000000002,0.0001124122966106286,3.400000000000002,0.0001635364958480327,3.400000000000002,0.0002185088705759441,3.400000000000002,0.0002760467439475113,3.400000000000002,0.0003349790548497867,3.400000000000002,0.0003939705650143032
3.500000000000002,3.524803050797128e-12,3.500000000000002,1.285626903806941e-09,3.500000000000002,4.616441459447392e-06,3.500000000000002,2.978990332735002e-05,3.500000000000002,6.745875862581598e-05,3.500000000000002,0.0001132421200739949,3.500000000000002,0.0001645807527190592,3.500000000000002,0.0002198102831051696,3.500000000000002,0.0002776861821134297,3.500000000000002,0.0003371009719569655,3.500000000000002,0.000396837119578109
3.600000000000002,3.626630242873279e-12,3.600000000000002,1.43789414173769e-09,3.600000000000002,4.796444221089947e-06,3.600000000000002,3.021400275177072e-05,3.600000000000002,6.808563127640951e-05,3.600000000000002,0.0001140612841618693,3.600000000000002,0.0001656047938312653,3.600000000000002,0.0002210763382833507,3.600000000000002,0.0002792650383776329,3.600000000000002,0.0003391179445450389,3.600000000000002,0.0003995160063057538
3.700000000000002,3.72868091143919e-12,3.700000000000002,1.607742497930336e-09,3.700000000000002,4.979705468350892e-06,3.700000000000002,3.063827224919186e-05,3.700000000000002,6.870854529425777e-05,3.700000000000002,0.0001148706388716669,3.700000000000002,0.0001666103432900685,3.700000000000002,0.000222310351572659,3.700000000000002,0.0002807896534141944,3.700000000000002,0.0003410423865547725,3.700000000000002,0.0004020324772195002
3.800000000000002,3.830982203110519e-12,3.800000000000002,1.797139870224281e-09,3.800000000000002,5.166188221364071e-06,3.800000000000002,3.106278927055625e-05,3.800000000000002,6.932782716009185e-05,3.800000000000002,0.0001156709536197778,3.800000000000002,0.0001675989422653965,3.800000000000002,0.0002235152446518267,3.800000000000002,0.0002822655214908686,3.800000000000002,0.0003428848390288014,3.800000000000002,0.0004044075227550136
3.900000000000002,3.933564543416233e-12,3.900000000000002,2.008265765016386e-09,3.900000000000002,5.355855732792033e-06,3.900000000000002,3.148762537263347e-05,3.900000000000002,6.994377635761839e-05,3.900000000000002,0.0001164629265666287,3.900000000000002,0.0001685719726549886,3.900000000000002,0.0002246936023143152,3.900000000000002,0.0002836974275416299,3.900000000000002,0.0003446543109877284,3.900000000000002,0.000406658710195205
4.000000000000002,4.036462030917238e-12,4.000000000000002,2.243532921312847e-09,4.000000000000002,5.548671579524474e-06,4.000000000000002,3.191284674086487e-05,4.000000000000002,7.055666809216324e-05,4.000000000000002,0.0001172471926733817,4.000000000000002,0.0001695306771567659,4.000000000000002,0.0002258477197386701,4.000000000000002,0.000285089558293183,4.000000000000002,0.0003463585482189637,4.000000000000002,0.0004088008424500315
4.100000000000001,4.139712878490968e-12,4.100000000000001,2.505611011727993e-09,4.100000000000001,5.744599743371088e-06,4.100000000000001,3.233851465773281e-05,4.100000000000001,7.116675568690837e-05,4.100000000000001,0.0001180243306877758,4.100000000000001,0.0001704761763732843,4.100000000000001,0.0002269796419921559,4.100000000000001,0.000286445593053067,4.100000000000001,0.0003480042472765928,4.100000000000001,0.0004108464751847535
4.200000000000001,4.243359907403026e-12,4.200000000000001,2.797452607260186e-09,4.200000000000001,5.943604681449598e-06,4.200000000000001,3.276468592317777e-05,4.200000000000001,7.177427270057285e-05,4.200000000000001,0.0001187948692220392,4.200000000000001,0.0001714094834498381,4.200000000000001,0.0002280911972243661,4.200000000000001,0.0002877687784026657,4.200000000000001,0.0003495972273485446,4.200000000000001,0.0004128063243802305
4.300000000000001,4.34745110045512e-12,4.300000000000001,3.122321608661341e-09,4.300000000000001,6.145651386970496e-06,4.300000000000001,3.319141323270486e-05,4.300000000000001,7.237943480367381e-05,4.300000000000001,0.0001195592920579545,4.300000000000001,0.0001723315166526371,4.300000000000001,0.0002291840247008998,4.300000000000001,0.0002890619900449515,4.300000000000001,0.0003511425693872899,4.300000000000001,0.0004146895894893813
4.4,4.452040221244899e-12,4.4,3.483824364490228e-09,4.4,6.350705441113773e-06,4.4,3.361874551807284e-05,4.4,7.298244144493555e-05,4.4,0.0001203180427915754,4.4,0.0001732431102183412,4.4,0.0002302595985922135,4.4,0.0002903277843218999,4.4,0.0003526447295673972,4.4,0.0004165042114254277
4.5,4.557187507407127e-12,4.5,3.885943714543308e-09,4.5,6.558733056679722e-06,4.5,3.404672825481976e-05,4.5,7.358347733476841e-05,4.5,0.0001210715289117084,4.5,0.0001741450237464829,4.5,0.0002313192482509535,4.5,0.0002915684413657221,4.5,0.0003541076324379076,4.5,0.000418257079974414
4.6,4.662960446639266e-12,4.6,4.333076217306971e-09,4.6,6.769701114177782e-06,4.6,3.4475403740334e-05,4.6,7.418271376885559e-05,4.6,0.000121820125391205,4.6,0.0001750379503584759,4.6,0.0002323641755692116,4.6,0.0002927860014306287,4.6,0.0003555347478892005,4.6,0.0004199542017054499
4.699999999999999,4.769434645358056e-12,4.699999999999999,4.830072841341221e-09,4.699999999999999,6.983577190995124e-06,4.699999999999999,3.49048113457127e-05,4.699999999999999,7.478030981161913e-05,4.699999999999999,0.0001225641778577227,4.699999999999999,0.0001759225238084081,4.699999999999999,0.0002333954698956193,4.699999999999999,0.0002939822956323055,4.699999999999999,0.0003569291551243376,4.699999999999999,0.0004216008368152563
4.799999999999999,4.876694800998489e-12,4.799999999999999,5.382283422995226e-09,4.799999999999999,7.200329584260674e-06,4.799999999999999,3.533498774424511e-05,4.799999999999999,7.537641335658979e-05,4.799999999999999,0.0001233040054003638,4.799999999999999,0.0001767993246996269,4.799999999999999,0.000234414120903892,4.799999999999999,0.0002951589720755588,4.799999999999999,0.0003582935961253473,4.799999999999999,0.0004232016113715714
4.899999999999999,4.984835790272896e-12,4.899999999999999,5.995605216396666e-09,4.899999999999999,7.419927327992059e-06,4.899999999999999,3.576596711901435e-05,4.899999999999999,7.597116207837403e-05,4.899999999999999,0.0001240399030601082,4.899999999999999,0.0001776688859357539,4.899999999999999,0.0002354210297340663,4.899999999999999,0.0002963175181585109,4.899999999999999,0.0003596305205736689,4.899999999999999,0.0004247606099412439
5,5.093963887162798e-12,5,6.676535885964573e-09,5,7.642340205083117e-06,5,3.619778135180934e-05,5,7.656468428894077e-05,5,0.0001247721440448685,5,0.0001785316975140077,5,0.000236417018671261,5,0.000297459279691122,5,0.0003609421237770567,5,0.0004262814524745911
